
T1040 000:046 SEGGER J-Link V6.10i Log File (0001ms, 0019ms total)
T1040 000:046 DLL Compiled: Oct 25 2016 19:31:51 (0001ms, 0019ms total)
T1040 000:046 Logging started @ 2019-02-21 21:20 (0001ms, 0019ms total)
T1040 000:047 JLINK_SetWarnOutHandler(...) (0000ms, 0019ms total)
T1040 000:047 JLINK_OpenEx(...)
Firmware: J-Link ARM V8 compiled Nov 28 2014 13:44:46
Hardware: V8.00
S/N: 158000076
OEM: IARWEBSRV Webserver running on local port 19080 (0007ms, 0026ms total)
T1040 000:047   returns O.K. (0007ms, 0026ms total)
T1040 000:054 JLINK_SetErrorOutHandler(...) (0000ms, 0026ms total)
T1040 000:054 JLINK_ExecCommand("ProjectFile = "C:\Keil_v5\Projects\PC2118\Keil\JLinkSettings.ini"", ...).   returns 0x00 (0098ms, 0124ms total)
T1040 000:152 JLINK_ExecCommand("Device = LPC4337:Cortex-M4", ...). Device "LPC4337_M4" selected.  returns 0x00 (0009ms, 0133ms total)
T1040 000:161 JLINK_ExecCommand("DisableConnectionTimeout", ...).   returns 0x01 (0000ms, 0133ms total)
T1040 000:161 JLINK_GetHardwareVersion()  returns 0x13880 (0000ms, 0133ms total)
T1040 000:161 JLINK_GetDLLVersion()  returns 61009 (0000ms, 0133ms total)
T1040 000:161 JLINK_GetDLLVersion()  returns 61009 (0000ms, 0133ms total)
T1040 000:161 JLINK_GetCompileDateTime() (0000ms, 0133ms total)
T1040 000:161 JLINK_GetFirmwareString(...) (0000ms, 0133ms total)
T1040 000:161 JLINK_GetHardwareVersion()  returns 0x13880 (0000ms, 0133ms total)
T1040 000:161 JLINK_TIF_Select(JLINKARM_TIF_JTAG)  returns 0x00 (0001ms, 0134ms total)
T1040 000:162 JLINK_SetSpeed(5000) (0001ms, 0135ms total)
T1040 000:163 JLINK_GetIdData(...) >0x2F8 JTAG>TotalIRLen = 8, IRPrint = 0x0011 >0x30 JTAG> >0x410 JTAG> >0x70 JTAG> >0x50 JTAG> >0x40 JTAG> >0x50 JTAG>AP-IDR: 0x24770011, Type: AHB-APStart searching for Cortex-M ROM table with ROMTable[0] @ 0xE00FF000.ROMTable[1]: Cortex-M ROM table found. >0x80 JTAG> >0x40 JTAG> >0x30 JTAG> >0x40 JTAG> >0x40 JTAG> >0x30 JTAG> >0x40 JTAG> >0x50 JTAG>Found Cortex-M4 r0p1, Little endian. -- CPU_ReadMem(4 bytes @ 0xE000EDF0) -- CPU_WriteMem(4 bytes @ 0xE000EDF0)
 -- CPU_ReadMem(4 bytes @ 0xE0002000)FPUnit: 6 code (BP) slots and 2 literal slots -- CPU_ReadMem(4 bytes @ 0xE000EDFC) -- CPU_WriteMem(4 bytes @ 0xE000EDFC) -- CPU_ReadMem(4 bytes @ 0xE0001000) -- CPU_WriteMem(4 bytes @ 0xE0001000) -- CPU_ReadMem(4 bytes @ 0xE000ED88) -- CPU_WriteMem(4 bytes @ 0xE000ED88) -- CPU_ReadMem(4 bytes @ 0xE000ED88) -- CPU_WriteMem(4 bytes @ 0xE000ED88)CoreSight components:ROMTbl 0 @ E00FF000 -- CPU_ReadMem(16 bytes @ 0xE00FF000) -- CPU_ReadMem(16 bytes @ 0xE000EFF0)
 -- CPU_ReadMem(16 bytes @ 0xE000EFE0)ROMTbl 0 [0]: FFF0F000, CID: B105E00D, PID: 000BB00C SCS -- CPU_ReadMem(16 bytes @ 0xE0001FF0) -- CPU_ReadMem(16 bytes @ 0xE0001FE0)ROMTbl 0 [1]: FFF02000, CID: B105E00D, PID: 003BB002 DWT -- CPU_ReadMem(16 bytes @ 0xE0002FF0) -- CPU_ReadMem(16 bytes @ 0xE0002FE0)ROMTbl 0 [2]: FFF03000, CID: B105E00D, PID: 002BB003 FPB -- CPU_ReadMem(16 bytes @ 0xE0000FF0) -- CPU_ReadMem(16 bytes @ 0xE0000FE0)ROMTbl 0 [3]: FFF01000, CID: B105E00D, PID: 003BB001 ITM
 -- CPU_ReadMem(16 bytes @ 0xE00FF010) -- CPU_ReadMem(16 bytes @ 0xE0040FF0) -- CPU_ReadMem(16 bytes @ 0xE0040FE0)ROMTbl 0 [4]: FFF41000, CID: B105900D, PID: 000BB9A1 TPIU -- CPU_ReadMem(16 bytes @ 0xE0041FF0) -- CPU_ReadMem(16 bytes @ 0xE0041FE0)ROMTbl 0 [5]: FFF42000, CID: B105900D, PID: 000BB925 ETM ScanLen=8 NumDevices=2 aId[0]=0x4BA00477 aIrRead[0]=0 aScanLen[0]=0 aScanRead[0]=0 (0023ms, 0158ms total)
T1040 000:186 JLINK_JTAG_GetDeviceID(DeviceIndex = 0)  returns 0x4BA00477 (0000ms, 0158ms total)
T1040 000:186 JLINK_JTAG_GetDeviceInfo(DeviceIndex = 0)  returns 0x00 (0000ms, 0158ms total)
T1040 000:186 JLINK_JTAG_GetDeviceID(DeviceIndex = 1)  returns 0xBA01477 (0000ms, 0158ms total)
T1040 000:186 JLINK_JTAG_GetDeviceInfo(DeviceIndex = 1)  returns 0x00 (0000ms, 0158ms total)
T1040 000:186 JLINK_GetDLLVersion()  returns 61009 (0000ms, 0158ms total)
T1040 000:186 JLINK_CORE_GetFound()  returns 0xE0000FF (0000ms, 0158ms total)
T1040 000:186 JLINK_GetDebugInfo(0x100) -- Value=0xE00FF003  returns 0x00 (0000ms, 0158ms total)
T1040 000:186 JLINK_GetDebugInfo(0x100) -- Value=0xE00FF003  returns 0x00 (0000ms, 0158ms total)
T1040 000:186 JLINK_GetDebugInfo(0x101) -- Value=0xE0041000  returns 0x00 (0000ms, 0158ms total)
T1040 000:186 JLINK_GetDebugInfo(0x102) -- Value=0x00000000  returns 0x00 (0000ms, 0158ms total)
T1040 000:186 JLINK_GetDebugInfo(0x103) -- Value=0xE0040000  returns 0x00 (0000ms, 0158ms total)
T1040 000:186 JLINK_GetDebugInfo(0x104) -- Value=0xE0000000  returns 0x00 (0000ms, 0158ms total)
T1040 000:186 JLINK_GetDebugInfo(0x105) -- Value=0xE0001000  returns 0x00 (0000ms, 0158ms total)
T1040 000:186 JLINK_GetDebugInfo(0x106) -- Value=0xE0002000  returns 0x00 (0000ms, 0158ms total)
T1040 000:186 JLINK_GetDebugInfo(0x107) -- Value=0xE000E000  returns 0x00 (0000ms, 0158ms total)
T1040 000:186 JLINK_GetDebugInfo(0x10C) -- Value=0xE000EDF0  returns 0x00 (0000ms, 0158ms total)
T1040 000:186 JLINK_ReadMemU32(0xE000EF40, 0x0001 Items, ...) -- CPU is running -- CPU_ReadMem(4 bytes @ 0xE000EF40) - Data: 21 00 11 10  returns 0x01 (0001ms, 0159ms total)
T1040 000:187 JLINK_ReadMemU32(0xE000EF44, 0x0001 Items, ...) -- CPU is running -- CPU_ReadMem(4 bytes @ 0xE000EF44) - Data: 11 00 00 11  returns 0x01 (0000ms, 0159ms total)
T1040 000:187 JLINK_ReadMemU32(0xE000ED00, 0x0001 Items, ...) -- CPU is running -- CPU_ReadMem(4 bytes @ 0xE000ED00) - Data: 41 C2 0F 41  returns 0x01 (0000ms, 0159ms total)
T1040 000:187 JLINK_SetResetType(JLINKARM_RESET_TYPE_NORMAL)  returns JLINKARM_RESET_TYPE_NORMAL (0000ms, 0159ms total)
T1040 000:187 JLINK_Reset()LPC18xx/43xx reset: Halting CPU before performing reset...LPC18xx/43xx reset: Halted CPU before reset. -- CPU_ReadMem(64 bytes @ 0x10000000) -- CPU_ReadMem(64 bytes @ 0x10080000) -- CPU_ReadMem(4096 bytes @ 0x10089000) -- CPU_WriteMem(4 bytes @ 0x40043100) -- CPU_WriteMem(4 bytes @ 0x4004312C) -- CPU_ReadMem(4 bytes @ 0xE000EDFC) -- CPU_ReadMem(4 bytes @ 0xE0001020) -- CPU_ReadMem(4 bytes @ 0xE0001024) -- CPU_ReadMem(4 bytes @ 0xE0001028) -- CPU_WriteMem(4 bytes @ 0xE0001020)
 -- CPU_WriteMem(4 bytes @ 0xE0001024) -- CPU_WriteMem(4 bytes @ 0xE0001028) -- CPU_ReadMem(8192 bytes @ 0x10400000)Unknown LPC18xx/43xx bootloader variant. Halting after reset may fail. -- CPU_ReadMem(4 bytes @ 0xE000EDFC) -- CPU_WriteMem(4 bytes @ 0xE000ED0C) -- CPU_WriteMem(4 bytes @ 0xE0001020) -- CPU_WriteMem(4 bytes @ 0xE0001024) -- CPU_WriteMem(4 bytes @ 0xE0001028) -- CPU_WriteMem(64 bytes @ 0x10000000) -- CPU_WriteMem(64 bytes @ 0x10080000) -- CPU_WriteMem(4096 bytes @ 0x10089000)
 -- CPU_ReadMem(4 bytes @ 0x00000000) -- CPU_WriteMem(4 bytes @ 0xE000EDF8) -- CPU_WriteMem(4 bytes @ 0xE000EDF4) -- CPU_ReadMem(4 bytes @ 0x00000004) -- CPU_WriteMem(4 bytes @ 0xE000EDF8) -- CPU_WriteMem(4 bytes @ 0xE000EDF4) -- CPU_WriteMem(4 bytes @ 0xE0002000) -- CPU_ReadMem(4 bytes @ 0xE000EDFC) -- CPU_ReadMem(4 bytes @ 0xE0001000) (0203ms, 0362ms total)
T1040 000:390 JLINK_ReadReg(R15 (PC))  returns 0x1A0001EC (0000ms, 0362ms total)
T1040 000:390 JLINK_ReadReg(XPSR)  returns 0x41000000 (0000ms, 0362ms total)
T1040 000:390 JLINK_Halt()  returns 0x00 (0000ms, 0362ms total)
T1040 000:390 JLINK_IsHalted()  returns TRUE (0000ms, 0362ms total)
T1040 000:390 JLINK_ReadMemU32(0xE000EDF0, 0x0001 Items, ...) -- CPU_ReadMem(4 bytes @ 0xE000EDF0) - Data: 03 00 03 00  returns 0x01 (0001ms, 0363ms total)
T1040 000:391 JLINK_WriteU32(0xE000EDF0, 0xA05F0003) -- CPU_WriteMem(4 bytes @ 0xE000EDF0)  returns 0x00 (0000ms, 0363ms total)
T1040 000:392 JLINK_WriteU32(0xE000EDFC, 0x01000000) -- CPU_WriteMem(4 bytes @ 0xE000EDFC)  returns 0x00 (0000ms, 0363ms total)
T1040 000:392 JLINK_GetHWStatus(...)  returns 0x00 (0001ms, 0364ms total)
T1040 000:393 JLINK_GetNumBPUnits(Type = 0xFFFFFF00)  returns 0x06 (0000ms, 0364ms total)
T1040 000:393 JLINK_GetNumBPUnits(Type = 0xF0)  returns 0x2000 (0000ms, 0364ms total)
T1040 000:393 JLINK_GetNumWPUnits()  returns 0x04 (0000ms, 0364ms total)
T1040 000:393 JLINK_GetSpeed()  returns 0x12C0 (0000ms, 0364ms total)
T1040 000:393 JLINK_ReadMemU32(0xE000E004, 0x0001 Items, ...) -- CPU_ReadMem(4 bytes @ 0xE000E004) - Data: 01 00 00 00  returns 0x01 (0001ms, 0365ms total)
T1040 000:394 JLINK_ReadMemU32(0xE000E004, 0x0001 Items, ...) -- CPU_ReadMem(4 bytes @ 0xE000E004) - Data: 01 00 00 00  returns 0x01 (0000ms, 0365ms total)
T1040 000:395 JLINK_WriteMem(0xE0001000, 0x001C Bytes, ...) - Data: 01 00 00 00 00 00 00 00 00 00 00 00 00 00 00 00 ... -- CPU_WriteMem(28 bytes @ 0xE0001000)  returns 0x1C (0003ms, 0369ms total)
T1040 000:398 JLINK_ReadMem (0xE0001000, 0x001C Bytes, ...) -- CPU_ReadMem(28 bytes @ 0xE0001000) - Data: 01 00 00 40 00 00 00 00 00 00 00 00 00 00 00 00 ...  returns 0x00 (0001ms, 0370ms total)
T1040 000:399 JLINK_ReadReg(R15 (PC))  returns 0x1A0001EC (0000ms, 0370ms total)
T1040 000:399 JLINK_ReadReg(XPSR)  returns 0x41000000 (0000ms, 0370ms total)
T1040 000:502 JLINK_SetResetType(JLINKARM_RESET_TYPE_NORMAL)  returns JLINKARM_RESET_TYPE_NORMAL (0001ms, 0371ms total)
T1040 000:503 JLINK_Reset()LPC18xx/43xx reset: Halting CPU before performing reset...LPC18xx/43xx reset: Halted CPU before reset. -- CPU_ReadMem(64 bytes @ 0x10000000) -- CPU_ReadMem(64 bytes @ 0x10080000) -- CPU_ReadMem(4096 bytes @ 0x10089000) -- CPU_WriteMem(4 bytes @ 0x40043100) -- CPU_WriteMem(4 bytes @ 0x4004312C) -- CPU_ReadMem(4 bytes @ 0xE000EDFC) -- CPU_ReadMem(4 bytes @ 0xE0001020) -- CPU_ReadMem(4 bytes @ 0xE0001024) -- CPU_ReadMem(4 bytes @ 0xE0001028) -- CPU_WriteMem(4 bytes @ 0xE0001020)
 -- CPU_WriteMem(4 bytes @ 0xE0001024) -- CPU_WriteMem(4 bytes @ 0xE0001028) -- CPU_ReadMem(8192 bytes @ 0x10400000)Unknown LPC18xx/43xx bootloader variant. Halting after reset may fail. -- CPU_ReadMem(4 bytes @ 0xE000EDFC) -- CPU_WriteMem(4 bytes @ 0xE000ED0C) -- CPU_WriteMem(4 bytes @ 0xE0001020) -- CPU_WriteMem(4 bytes @ 0xE0001024) -- CPU_WriteMem(4 bytes @ 0xE0001028) -- CPU_WriteMem(64 bytes @ 0x10000000) -- CPU_WriteMem(64 bytes @ 0x10080000) -- CPU_WriteMem(4096 bytes @ 0x10089000)
 -- CPU_ReadMem(4 bytes @ 0x00000000) -- CPU_WriteMem(4 bytes @ 0xE000EDF8) -- CPU_WriteMem(4 bytes @ 0xE000EDF4) -- CPU_ReadMem(4 bytes @ 0x00000004) -- CPU_WriteMem(4 bytes @ 0xE000EDF8) -- CPU_WriteMem(4 bytes @ 0xE000EDF4) -- CPU_WriteMem(4 bytes @ 0xE0002000) -- CPU_ReadMem(4 bytes @ 0xE000EDFC) -- CPU_ReadMem(4 bytes @ 0xE0001000) (0168ms, 0539ms total)
T1040 000:671 JLINK_ReadReg(R15 (PC))  returns 0x1A0001EC (0000ms, 0539ms total)
T1040 000:671 JLINK_ReadReg(XPSR)  returns 0x41000000 (0000ms, 0539ms total)
T1040 000:673 JLINK_ReadMem (0x1A0001EC, 0x003C Bytes, ...) -- CPU_ReadMem(128 bytes @ 0x1A0001C0) -- Updating C cache (128 bytes @ 0x1A0001C0) -- Read from C cache (60 bytes @ 0x1A0001EC) - Data: 08 48 80 47 08 48 00 47 FE E7 FE E7 FE E7 FE E7 ...  returns 0x00 (0002ms, 0541ms total)
T1040 000:768 JLINK_ReadMem (0xE000E010, 0x0010 Bytes, ...) -- CPU_ReadMem(16 bytes @ 0xE000E010) - Data: 00 00 00 00 80 8D 5B 00 00 00 00 00 C0 D4 01 00  returns 0x00 (0000ms, 0541ms total)
T1040 000:872 JLINK_ReadMem (0xE000E010, 0x0004 Bytes, ...) -- CPU_ReadMem(4 bytes @ 0xE000E010) - Data: 00 00 00 00  returns 0x00 (0001ms, 0542ms total)
T1960 001:615 JLINK_SetBPEx(Addr = 0x1A00091A, Type = 0xFFFFFFF2)  returns 0x00000001 (0000ms, 0542ms total)
T1960 001:615 JLINK_Go() -- CPU_ReadMem(4 bytes @ 0xE0001000) -- CPU_WriteMem(4 bytes @ 0xE0002008) -- CPU_WriteMem(4 bytes @ 0xE000200C) -- CPU_WriteMem(4 bytes @ 0xE0002010) -- CPU_WriteMem(4 bytes @ 0xE0002014) -- CPU_WriteMem(4 bytes @ 0xE0002018) -- CPU_WriteMem(4 bytes @ 0xE000201C) -- CPU_WriteMem(4 bytes @ 0xE0001004) (0003ms, 0545ms total)
T1960 001:719 JLINK_IsHalted()  returns TRUE (0002ms, 0547ms total)
T1960 001:721 JLINK_Halt()  returns 0x00 (0000ms, 0545ms total)
T1960 001:721 JLINK_IsHalted()  returns TRUE (0000ms, 0545ms total)
T1960 001:721 JLINK_IsHalted()  returns TRUE (0000ms, 0545ms total)
T1960 001:721 JLINK_IsHalted()  returns TRUE (0000ms, 0545ms total)
T1960 001:722 JLINK_ReadReg(R15 (PC))  returns 0x1A00091A (0000ms, 0545ms total)
T1960 001:722 JLINK_ReadReg(XPSR)  returns 0x61000000 (0000ms, 0545ms total)
T1960 001:722 JLINK_ClrBPEx(BPHandle = 0x00000001)  returns 0x00 (0000ms, 0545ms total)
T1960 001:722 JLINK_ReadMemU32(0xE000ED30, 0x0001 Items, ...) -- CPU_ReadMem(4 bytes @ 0xE000ED30) - Data: 03 00 00 00  returns 0x01 (0000ms, 0545ms total)
T1960 001:722 JLINK_ReadMemU32(0xE0001028, 0x0001 Items, ...) -- CPU_ReadMem(4 bytes @ 0xE0001028) - Data: 00 00 00 01  returns 0x01 (0001ms, 0546ms total)
T1960 001:723 JLINK_ReadMemU32(0xE0001038, 0x0001 Items, ...) -- CPU_ReadMem(4 bytes @ 0xE0001038) - Data: 00 02 00 00  returns 0x01 (0000ms, 0546ms total)
T1960 001:723 JLINK_ReadMemU32(0xE0001048, 0x0001 Items, ...) -- CPU_ReadMem(4 bytes @ 0xE0001048) - Data: 00 00 00 00  returns 0x01 (0001ms, 0547ms total)
T1960 001:724 JLINK_ReadMemU32(0xE0001058, 0x0001 Items, ...) -- CPU_ReadMem(4 bytes @ 0xE0001058) - Data: 00 00 00 00  returns 0x01 (0000ms, 0547ms total)
T1960 001:724 JLINK_ReadReg(R0)  returns 0x1A00091B (0000ms, 0547ms total)
T1960 001:724 JLINK_ReadReg(R1)  returns 0x2000A000 (0000ms, 0547ms total)
T1960 001:724 JLINK_ReadReg(R2)  returns 0x00000000 (0000ms, 0547ms total)
T1960 001:724 JLINK_ReadReg(R3)  returns 0x1A00090D (0000ms, 0547ms total)
T1960 001:724 JLINK_ReadReg(R4)  returns 0x1A00297C (0000ms, 0547ms total)
T1960 001:724 JLINK_ReadReg(R5)  returns 0x1A00297C (0000ms, 0547ms total)
T1960 001:724 JLINK_ReadReg(R6)  returns 0x00000000 (0000ms, 0547ms total)
T1960 001:724 JLINK_ReadReg(R7)  returns 0x00000000 (0000ms, 0547ms total)
T1960 001:724 JLINK_ReadReg(R8)  returns 0x00000000 (0000ms, 0547ms total)
T1960 001:724 JLINK_ReadReg(R9)  returns 0x00000000 (0000ms, 0547ms total)
T1960 001:724 JLINK_ReadReg(R10)  returns 0x00000000 (0000ms, 0547ms total)
T1960 001:724 JLINK_ReadReg(R11)  returns 0x00000000 (0000ms, 0547ms total)
T1960 001:724 JLINK_ReadReg(R12)  returns 0x00000000 (0000ms, 0547ms total)
T1960 001:724 JLINK_ReadReg(R13 (SP))  returns 0x10000630 (0000ms, 0547ms total)
T1960 001:724 JLINK_ReadReg(R14)  returns 0x1A000259 (0000ms, 0547ms total)
T1960 001:724 JLINK_ReadReg(R15 (PC))  returns 0x1A00091A (0000ms, 0547ms total)
T1960 001:724 JLINK_ReadReg(XPSR)  returns 0x61000000 (0001ms, 0548ms total)
T1960 001:725 JLINK_ReadReg(MSP)  returns 0x10000630 (0000ms, 0548ms total)
T1960 001:725 JLINK_ReadReg(PSP)  returns 0x00000000 (0000ms, 0548ms total)
T1960 001:725 JLINK_ReadReg(CFBP)  returns 0x00000000 (0000ms, 0548ms total)
T1960 001:725 JLINK_ReadReg(FPSCR)  returns 0x00000000 (0004ms, 0552ms total)
T1960 001:729 JLINK_ReadReg(FPS0)  returns 0x00000000 (0000ms, 0552ms total)
T1960 001:729 JLINK_ReadReg(FPS1)  returns 0x00000000 (0000ms, 0552ms total)
T1960 001:729 JLINK_ReadReg(FPS2)  returns 0x00000000 (0000ms, 0552ms total)
T1960 001:729 JLINK_ReadReg(FPS3)  returns 0x00000000 (0000ms, 0552ms total)
T1960 001:729 JLINK_ReadReg(FPS4)  returns 0x00000000 (0000ms, 0552ms total)
T1960 001:729 JLINK_ReadReg(FPS5)  returns 0x00000000 (0000ms, 0552ms total)
T1960 001:729 JLINK_ReadReg(FPS6)  returns 0x00000000 (0000ms, 0552ms total)
T1960 001:729 JLINK_ReadReg(FPS7)  returns 0x00000000 (0000ms, 0552ms total)
T1960 001:729 JLINK_ReadReg(FPS8)  returns 0x00000000 (0000ms, 0552ms total)
T1960 001:729 JLINK_ReadReg(FPS9)  returns 0x00000000 (0000ms, 0552ms total)
T1960 001:729 JLINK_ReadReg(FPS10)  returns 0x00000000 (0000ms, 0552ms total)
T1960 001:729 JLINK_ReadReg(FPS11)  returns 0x00000000 (0000ms, 0552ms total)
T1960 001:729 JLINK_ReadReg(FPS12)  returns 0x00000000 (0000ms, 0552ms total)
T1960 001:729 JLINK_ReadReg(FPS13)  returns 0x00000000 (0000ms, 0552ms total)
T1960 001:729 JLINK_ReadReg(FPS14)  returns 0x00000000 (0000ms, 0552ms total)
T1960 001:729 JLINK_ReadReg(FPS15)  returns 0x00000000 (0000ms, 0552ms total)
T1960 001:729 JLINK_ReadReg(FPS16)  returns 0x00000000 (0000ms, 0552ms total)
T1960 001:729 JLINK_ReadReg(FPS17)  returns 0x00000000 (0000ms, 0552ms total)
T1960 001:729 JLINK_ReadReg(FPS18)  returns 0x00000000 (0000ms, 0552ms total)
T1960 001:729 JLINK_ReadReg(FPS19)  returns 0x00000000 (0000ms, 0552ms total)
T1960 001:729 JLINK_ReadReg(FPS20)  returns 0x00000000 (0000ms, 0552ms total)
T1960 001:729 JLINK_ReadReg(FPS21)  returns 0x00000000 (0000ms, 0552ms total)
T1960 001:729 JLINK_ReadReg(FPS22)  returns 0x00000000 (0000ms, 0552ms total)
T1960 001:729 JLINK_ReadReg(FPS23)  returns 0x00000000 (0001ms, 0553ms total)
T1960 001:730 JLINK_ReadReg(FPS24)  returns 0x00000000 (0000ms, 0553ms total)
T1960 001:730 JLINK_ReadReg(FPS25)  returns 0x00000000 (0000ms, 0553ms total)
T1960 001:730 JLINK_ReadReg(FPS26)  returns 0x00000000 (0000ms, 0553ms total)
T1960 001:730 JLINK_ReadReg(FPS27)  returns 0x00000000 (0000ms, 0553ms total)
T1960 001:730 JLINK_ReadReg(FPS28)  returns 0x00000000 (0000ms, 0553ms total)
T1960 001:730 JLINK_ReadReg(FPS29)  returns 0x00000000 (0000ms, 0553ms total)
T1960 001:730 JLINK_ReadReg(FPS30)  returns 0x00000000 (0000ms, 0553ms total)
T1960 001:730 JLINK_ReadReg(FPS31)  returns 0x00000000 (0000ms, 0553ms total)
T1040 001:733 JLINK_ReadMem (0xE000E010, 0x0010 Bytes, ...) -- CPU_ReadMem(16 bytes @ 0xE000E010) - Data: 00 00 00 00 80 8D 5B 00 00 00 00 00 C0 D4 01 00  returns 0x00 (0001ms, 0554ms total)
T1040 001:737 JLINK_ReadMem (0x1A00091A, 0x0002 Bytes, ...) -- CPU_ReadMem(64 bytes @ 0x1A000900) -- Updating C cache (64 bytes @ 0x1A000900) -- Read from C cache (2 bytes @ 0x1A00091A) - Data: 00 F0  returns 0x00 (0000ms, 0554ms total)
T1040 001:737 JLINK_ReadMem (0x1A00091C, 0x003C Bytes, ...) -- CPU_ReadMem(64 bytes @ 0x1A000940) -- Updating C cache (64 bytes @ 0x1A000940) -- Read from C cache (60 bytes @ 0x1A00091C) - Data: 1D FE 00 F0 39 FE 00 F0 59 FF 00 BF FE E7 00 00 ...  returns 0x00 (0001ms, 0555ms total)
T1040 009:788 JLINK_ReadMem (0xE000E010, 0x0004 Bytes, ...) -- CPU_ReadMem(4 bytes @ 0xE000E010) - Data: 00 00 00 00  returns 0x00 (0001ms, 0556ms total)
T1960 009:971 JLINK_SetBPEx(Addr = 0x1A00091E, Type = 0xFFFFFFF2)  returns 0x00000002 (0000ms, 0556ms total)
T1960 009:971 JLINK_Go() -- CPU_ReadMem(4 bytes @ 0xE0001000) -- CPU_WriteMem(4 bytes @ 0xE0002008) (0002ms, 0558ms total)
T1960 010:073 JLINK_IsHalted()  returns TRUE (0003ms, 0561ms total)
T1960 010:076 JLINK_Halt()  returns 0x00 (0000ms, 0558ms total)
T1960 010:076 JLINK_IsHalted()  returns TRUE (0000ms, 0558ms total)
T1960 010:076 JLINK_IsHalted()  returns TRUE (0000ms, 0558ms total)
T1960 010:076 JLINK_IsHalted()  returns TRUE (0000ms, 0558ms total)
T1960 010:076 JLINK_ReadReg(R15 (PC))  returns 0x1A00091E (0000ms, 0558ms total)
T1960 010:076 JLINK_ReadReg(XPSR)  returns 0x21000000 (0000ms, 0558ms total)
T1960 010:076 JLINK_ClrBPEx(BPHandle = 0x00000002)  returns 0x00 (0000ms, 0558ms total)
T1960 010:076 JLINK_ReadMemU32(0xE000ED30, 0x0001 Items, ...) -- CPU_ReadMem(4 bytes @ 0xE000ED30) - Data: 03 00 00 00  returns 0x01 (0001ms, 0559ms total)
T1960 010:077 JLINK_ReadMemU32(0xE0001028, 0x0001 Items, ...) -- CPU_ReadMem(4 bytes @ 0xE0001028) - Data: 00 00 00 00  returns 0x01 (0001ms, 0560ms total)
T1960 010:078 JLINK_ReadMemU32(0xE0001038, 0x0001 Items, ...) -- CPU_ReadMem(4 bytes @ 0xE0001038) - Data: 00 02 00 00  returns 0x01 (0000ms, 0560ms total)
T1960 010:078 JLINK_ReadMemU32(0xE0001048, 0x0001 Items, ...) -- CPU_ReadMem(4 bytes @ 0xE0001048) - Data: 00 00 00 00  returns 0x01 (0001ms, 0561ms total)
T1960 010:079 JLINK_ReadMemU32(0xE0001058, 0x0001 Items, ...) -- CPU_ReadMem(4 bytes @ 0xE0001058) - Data: 00 00 00 00  returns 0x01 (0001ms, 0562ms total)
T1960 010:080 JLINK_ReadReg(R0)  returns 0x00000011 (0000ms, 0562ms total)
T1960 010:080 JLINK_ReadReg(R1)  returns 0x00000058 (0000ms, 0562ms total)
T1960 010:080 JLINK_ReadReg(R2)  returns 0x00000006 (0000ms, 0562ms total)
T1960 010:080 JLINK_ReadReg(R3)  returns 0x0000000D (0000ms, 0562ms total)
T1960 010:080 JLINK_ReadReg(R4)  returns 0x1A00297C (0000ms, 0562ms total)
T1960 010:080 JLINK_ReadReg(R5)  returns 0x1A00297C (0000ms, 0562ms total)
T1960 010:080 JLINK_ReadReg(R6)  returns 0x00000000 (0000ms, 0562ms total)
T1960 010:080 JLINK_ReadReg(R7)  returns 0x00000000 (0000ms, 0562ms total)
T1960 010:080 JLINK_ReadReg(R8)  returns 0x00000000 (0000ms, 0562ms total)
T1960 010:080 JLINK_ReadReg(R9)  returns 0x00000000 (0001ms, 0563ms total)
T1960 010:081 JLINK_ReadReg(R10)  returns 0x00000000 (0000ms, 0563ms total)
T1960 010:081 JLINK_ReadReg(R11)  returns 0x00000000 (0000ms, 0563ms total)
T1960 010:081 JLINK_ReadReg(R12)  returns 0x00000004 (0000ms, 0563ms total)
T1960 010:081 JLINK_ReadReg(R13 (SP))  returns 0x10000630 (0000ms, 0563ms total)
T1960 010:081 JLINK_ReadReg(R14)  returns 0x1A00158D (0000ms, 0563ms total)
T1960 010:081 JLINK_ReadReg(R15 (PC))  returns 0x1A00091E (0000ms, 0563ms total)
T1960 010:081 JLINK_ReadReg(XPSR)  returns 0x21000000 (0000ms, 0563ms total)
T1960 010:081 JLINK_ReadReg(MSP)  returns 0x10000630 (0000ms, 0563ms total)
T1960 010:081 JLINK_ReadReg(PSP)  returns 0x00000000 (0000ms, 0563ms total)
T1960 010:081 JLINK_ReadReg(CFBP)  returns 0x00000000 (0000ms, 0563ms total)
T1960 010:081 JLINK_ReadReg(FPSCR)  returns 0x00000000 (0005ms, 0568ms total)
T1960 010:086 JLINK_ReadReg(FPS0)  returns 0x00000000 (0000ms, 0568ms total)
T1960 010:086 JLINK_ReadReg(FPS1)  returns 0x00000000 (0000ms, 0568ms total)
T1960 010:086 JLINK_ReadReg(FPS2)  returns 0x00000000 (0000ms, 0568ms total)
T1960 010:086 JLINK_ReadReg(FPS3)  returns 0x00000000 (0000ms, 0568ms total)
T1960 010:086 JLINK_ReadReg(FPS4)  returns 0x00000000 (0000ms, 0568ms total)
T1960 010:086 JLINK_ReadReg(FPS5)  returns 0x00000000 (0000ms, 0568ms total)
T1960 010:086 JLINK_ReadReg(FPS6)  returns 0x00000000 (0000ms, 0568ms total)
T1960 010:086 JLINK_ReadReg(FPS7)  returns 0x00000000 (0000ms, 0568ms total)
T1960 010:086 JLINK_ReadReg(FPS8)  returns 0x00000000 (0000ms, 0568ms total)
T1960 010:086 JLINK_ReadReg(FPS9)  returns 0x00000000 (0000ms, 0568ms total)
T1960 010:086 JLINK_ReadReg(FPS10)  returns 0x00000000 (0000ms, 0568ms total)
T1960 010:086 JLINK_ReadReg(FPS11)  returns 0x00000000 (0000ms, 0568ms total)
T1960 010:086 JLINK_ReadReg(FPS12)  returns 0x00000000 (0000ms, 0568ms total)
T1960 010:086 JLINK_ReadReg(FPS13)  returns 0x00000000 (0001ms, 0569ms total)
T1960 010:087 JLINK_ReadReg(FPS14)  returns 0x00000000 (0000ms, 0569ms total)
T1960 010:087 JLINK_ReadReg(FPS15)  returns 0x00000000 (0000ms, 0569ms total)
T1960 010:087 JLINK_ReadReg(FPS16)  returns 0x00000000 (0000ms, 0569ms total)
T1960 010:087 JLINK_ReadReg(FPS17)  returns 0x00000000 (0000ms, 0569ms total)
T1960 010:087 JLINK_ReadReg(FPS18)  returns 0x00000000 (0000ms, 0569ms total)
T1960 010:087 JLINK_ReadReg(FPS19)  returns 0x00000000 (0000ms, 0569ms total)
T1960 010:087 JLINK_ReadReg(FPS20)  returns 0x00000000 (0000ms, 0569ms total)
T1960 010:087 JLINK_ReadReg(FPS21)  returns 0x00000000 (0000ms, 0569ms total)
T1960 010:087 JLINK_ReadReg(FPS22)  returns 0x00000000 (0000ms, 0569ms total)
T1960 010:087 JLINK_ReadReg(FPS23)  returns 0x00000000 (0000ms, 0569ms total)
T1960 010:087 JLINK_ReadReg(FPS24)  returns 0x00000000 (0000ms, 0569ms total)
T1960 010:087 JLINK_ReadReg(FPS25)  returns 0x00000000 (0000ms, 0569ms total)
T1960 010:087 JLINK_ReadReg(FPS26)  returns 0x00000000 (0000ms, 0569ms total)
T1960 010:087 JLINK_ReadReg(FPS27)  returns 0x00000000 (0000ms, 0569ms total)
T1960 010:087 JLINK_ReadReg(FPS28)  returns 0x00000000 (0000ms, 0569ms total)
T1960 010:087 JLINK_ReadReg(FPS29)  returns 0x00000000 (0000ms, 0569ms total)
T1960 010:087 JLINK_ReadReg(FPS30)  returns 0x00000000 (0000ms, 0569ms total)
T1960 010:087 JLINK_ReadReg(FPS31)  returns 0x00000000 (0001ms, 0570ms total)
T1040 010:090 JLINK_ReadMem (0xE000E010, 0x0010 Bytes, ...) -- CPU_ReadMem(16 bytes @ 0xE000E010) - Data: 00 00 00 00 80 8D 5B 00 00 00 00 00 C0 D4 01 00  returns 0x00 (0002ms, 0572ms total)
T1040 010:099 JLINK_ReadMem (0x1A00091A, 0x0002 Bytes, ...) -- CPU_ReadMem(64 bytes @ 0x1A000900) -- Updating C cache (64 bytes @ 0x1A000900) -- Read from C cache (2 bytes @ 0x1A00091A) - Data: 00 F0  returns 0x00 (0001ms, 0573ms total)
T1040 010:100 JLINK_ReadMem (0x1A00091C, 0x003C Bytes, ...) -- CPU_ReadMem(64 bytes @ 0x1A000940) -- Updating C cache (64 bytes @ 0x1A000940) -- Read from C cache (60 bytes @ 0x1A00091C) - Data: 1D FE 00 F0 39 FE 00 F0 59 FF 00 BF FE E7 00 00 ...  returns 0x00 (0001ms, 0574ms total)
T1960 012:094 JLINK_SetBPEx(Addr = 0x1A000922, Type = 0xFFFFFFF2)  returns 0x00000003 (0000ms, 0574ms total)
T1960 012:094 JLINK_Go() -- CPU_ReadMem(4 bytes @ 0xE0001000) -- CPU_WriteMem(4 bytes @ 0xE0002008) (0001ms, 0575ms total)
T1960 012:196 JLINK_IsHalted()  returns TRUE (0003ms, 0578ms total)
T1960 012:199 JLINK_Halt()  returns 0x00 (0000ms, 0575ms total)
T1960 012:199 JLINK_IsHalted()  returns TRUE (0000ms, 0575ms total)
T1960 012:199 JLINK_IsHalted()  returns TRUE (0000ms, 0575ms total)
T1960 012:199 JLINK_IsHalted()  returns TRUE (0000ms, 0575ms total)
T1960 012:199 JLINK_ReadReg(R15 (PC))  returns 0x1A000922 (0000ms, 0575ms total)
T1960 012:199 JLINK_ReadReg(XPSR)  returns 0x21000000 (0001ms, 0576ms total)
T1960 012:200 JLINK_ClrBPEx(BPHandle = 0x00000003)  returns 0x00 (0000ms, 0576ms total)
T1960 012:200 JLINK_ReadMemU32(0xE000ED30, 0x0001 Items, ...) -- CPU_ReadMem(4 bytes @ 0xE000ED30) - Data: 03 00 00 00  returns 0x01 (0001ms, 0577ms total)
T1960 012:201 JLINK_ReadMemU32(0xE0001028, 0x0001 Items, ...) -- CPU_ReadMem(4 bytes @ 0xE0001028) - Data: 00 00 00 00  returns 0x01 (0000ms, 0577ms total)
T1960 012:201 JLINK_ReadMemU32(0xE0001038, 0x0001 Items, ...) -- CPU_ReadMem(4 bytes @ 0xE0001038) - Data: 00 02 00 00  returns 0x01 (0001ms, 0578ms total)
T1960 012:202 JLINK_ReadMemU32(0xE0001048, 0x0001 Items, ...) -- CPU_ReadMem(4 bytes @ 0xE0001048) - Data: 00 00 00 00  returns 0x01 (0001ms, 0579ms total)
T1960 012:203 JLINK_ReadMemU32(0xE0001058, 0x0001 Items, ...) -- CPU_ReadMem(4 bytes @ 0xE0001058) - Data: 00 00 00 00  returns 0x01 (0000ms, 0579ms total)
T1960 012:204 JLINK_ReadReg(R0)  returns 0x00000001 (0000ms, 0579ms total)
T1960 012:204 JLINK_ReadReg(R1)  returns 0x1000001C (0000ms, 0579ms total)
T1960 012:204 JLINK_ReadReg(R2)  returns 0x00000003 (0000ms, 0579ms total)
T1960 012:204 JLINK_ReadReg(R3)  returns 0x00000000 (0000ms, 0579ms total)
T1960 012:204 JLINK_ReadReg(R4)  returns 0x1A00297C (0000ms, 0579ms total)
T1960 012:204 JLINK_ReadReg(R5)  returns 0x1A00297C (0000ms, 0579ms total)
T1960 012:204 JLINK_ReadReg(R6)  returns 0x00000000 (0000ms, 0579ms total)
T1960 012:204 JLINK_ReadReg(R7)  returns 0x00000000 (0000ms, 0579ms total)
T1960 012:204 JLINK_ReadReg(R8)  returns 0x00000000 (0000ms, 0579ms total)
T1960 012:204 JLINK_ReadReg(R9)  returns 0x00000000 (0000ms, 0579ms total)
T1960 012:204 JLINK_ReadReg(R10)  returns 0x00000000 (0000ms, 0579ms total)
T1960 012:204 JLINK_ReadReg(R11)  returns 0x00000000 (0000ms, 0579ms total)
T1960 012:204 JLINK_ReadReg(R12)  returns 0x00000004 (0000ms, 0579ms total)
T1960 012:204 JLINK_ReadReg(R13 (SP))  returns 0x10000630 (0000ms, 0579ms total)
T1960 012:204 JLINK_ReadReg(R14)  returns 0x1A000A37 (0000ms, 0579ms total)
T1960 012:204 JLINK_ReadReg(R15 (PC))  returns 0x1A000922 (0001ms, 0580ms total)
T1960 012:205 JLINK_ReadReg(XPSR)  returns 0x21000000 (0000ms, 0580ms total)
T1960 012:205 JLINK_ReadReg(MSP)  returns 0x10000630 (0000ms, 0580ms total)
T1960 012:205 JLINK_ReadReg(PSP)  returns 0x00000000 (0000ms, 0580ms total)
T1960 012:205 JLINK_ReadReg(CFBP)  returns 0x00006000 (0000ms, 0580ms total)
T1960 012:205 JLINK_ReadReg(FPSCR)  returns 0x00000000 (0004ms, 0584ms total)
T1960 012:209 JLINK_ReadReg(FPS0)  returns 0x00000000 (0000ms, 0584ms total)
T1960 012:209 JLINK_ReadReg(FPS1)  returns 0x00000000 (0000ms, 0584ms total)
T1960 012:209 JLINK_ReadReg(FPS2)  returns 0x00000000 (0000ms, 0584ms total)
T1960 012:210 JLINK_ReadReg(FPS3)  returns 0x00000000 (0000ms, 0585ms total)
T1960 012:210 JLINK_ReadReg(FPS4)  returns 0x00000000 (0000ms, 0585ms total)
T1960 012:210 JLINK_ReadReg(FPS5)  returns 0x00000000 (0000ms, 0585ms total)
T1960 012:210 JLINK_ReadReg(FPS6)  returns 0x00000000 (0000ms, 0585ms total)
T1960 012:210 JLINK_ReadReg(FPS7)  returns 0x00000000 (0000ms, 0585ms total)
T1960 012:210 JLINK_ReadReg(FPS8)  returns 0x00000000 (0000ms, 0585ms total)
T1960 012:210 JLINK_ReadReg(FPS9)  returns 0x00000000 (0000ms, 0585ms total)
T1960 012:210 JLINK_ReadReg(FPS10)  returns 0x00000000 (0000ms, 0585ms total)
T1960 012:210 JLINK_ReadReg(FPS11)  returns 0x00000000 (0000ms, 0585ms total)
T1960 012:210 JLINK_ReadReg(FPS12)  returns 0x00000000 (0000ms, 0585ms total)
T1960 012:210 JLINK_ReadReg(FPS13)  returns 0x00000000 (0000ms, 0585ms total)
T1960 012:210 JLINK_ReadReg(FPS14)  returns 0x00000000 (0000ms, 0585ms total)
T1960 012:210 JLINK_ReadReg(FPS15)  returns 0x00000000 (0000ms, 0585ms total)
T1960 012:210 JLINK_ReadReg(FPS16)  returns 0x00000000 (0000ms, 0585ms total)
T1960 012:210 JLINK_ReadReg(FPS17)  returns 0x00000000 (0000ms, 0585ms total)
T1960 012:210 JLINK_ReadReg(FPS18)  returns 0x00000000 (0000ms, 0585ms total)
T1960 012:210 JLINK_ReadReg(FPS19)  returns 0x00000000 (0000ms, 0585ms total)
T1960 012:210 JLINK_ReadReg(FPS20)  returns 0x00000000 (0000ms, 0585ms total)
T1960 012:210 JLINK_ReadReg(FPS21)  returns 0x00000000 (0001ms, 0586ms total)
T1960 012:211 JLINK_ReadReg(FPS22)  returns 0x00000000 (0000ms, 0586ms total)
T1960 012:211 JLINK_ReadReg(FPS23)  returns 0x00000000 (0000ms, 0586ms total)
T1960 012:211 JLINK_ReadReg(FPS24)  returns 0x00000000 (0000ms, 0586ms total)
T1960 012:211 JLINK_ReadReg(FPS25)  returns 0x00000000 (0000ms, 0586ms total)
T1960 012:211 JLINK_ReadReg(FPS26)  returns 0x00000000 (0000ms, 0586ms total)
T1960 012:211 JLINK_ReadReg(FPS27)  returns 0x00000000 (0000ms, 0586ms total)
T1960 012:211 JLINK_ReadReg(FPS28)  returns 0x00000000 (0000ms, 0586ms total)
T1960 012:211 JLINK_ReadReg(FPS29)  returns 0x00000000 (0000ms, 0586ms total)
T1960 012:211 JLINK_ReadReg(FPS30)  returns 0x00000000 (0000ms, 0586ms total)
T1960 012:211 JLINK_ReadReg(FPS31)  returns 0x00000000 (0000ms, 0586ms total)
T1040 012:211 JLINK_ReadMem (0xE000E010, 0x0010 Bytes, ...) -- CPU_ReadMem(16 bytes @ 0xE000E010) - Data: 00 00 00 00 80 8D 5B 00 00 00 00 00 C0 D4 01 00  returns 0x00 (0002ms, 0588ms total)
T1960 013:192 JLINK_ReadMem (0x1A000922, 0x0002 Bytes, ...) -- CPU_ReadMem(64 bytes @ 0x1A000900) -- Updating C cache (64 bytes @ 0x1A000900) -- Read from C cache (2 bytes @ 0x1A000922) - Data: 00 F0  returns 0x00 (0000ms, 0588ms total)
T1960 013:192 JLINK_ReadMem (0x1A000924, 0x003C Bytes, ...) -- CPU_ReadMem(64 bytes @ 0x1A000940) -- Updating C cache (64 bytes @ 0x1A000940) -- Read from C cache (60 bytes @ 0x1A000924) - Data: 59 FF 00 BF FE E7 00 00 2D E9 F0 41 05 46 0E 46 ...  returns 0x00 (0001ms, 0589ms total)
T1960 013:193 JLINK_SetBPEx(Addr = 0x1A000926, Type = 0xFFFFFFF2)  returns 0x00000004 (0000ms, 0589ms total)
T1960 013:193 JLINK_Go() -- CPU_ReadMem(4 bytes @ 0xE0001000) -- CPU_WriteMem(4 bytes @ 0xE0002008) (0003ms, 0592ms total)
T1960 013:297 JLINK_IsHalted()  returns FALSE (0000ms, 0592ms total)
T1960 013:397 JLINK_IsHalted()  returns FALSE (0000ms, 0592ms total)
T1960 013:499 JLINK_IsHalted()  returns FALSE (0001ms, 0593ms total)
T1960 013:600 JLINK_IsHalted()  returns FALSE (0000ms, 0592ms total)
T1960 013:701 JLINK_ReadMemU32(0xE0001004, 0x0001 Items, ...) -- CPU is running -- CPU_ReadMem(4 bytes @ 0xE0001004) - Data: 72 6B 0C 06  returns 0x01 (0000ms, 0592ms total)
T1040 013:702 JLINK_ReadMem (0xE000E010, 0x0010 Bytes, ...) -- CPU is running -- CPU_ReadMem(16 bytes @ 0xE000E010) - Data: 07 00 01 00 3F 0D 03 00 82 C4 00 00 C0 D4 01 00  returns 0x00 (0001ms, 0593ms total)
T1960 013:705 JLINK_IsHalted()  returns FALSE (0001ms, 0594ms total)
T1960 013:806 JLINK_IsHalted()  returns FALSE (0000ms, 0593ms total)
T1960 013:907 JLINK_IsHalted()  returns FALSE (0000ms, 0593ms total)
T1960 014:009 JLINK_IsHalted()  returns FALSE (0000ms, 0593ms total)
T1960 014:111 JLINK_IsHalted()  returns FALSE (0000ms, 0593ms total)
T1960 014:212 JLINK_ReadMemU32(0xE0001004, 0x0001 Items, ...) -- CPU is running - Data: 72 6B 0C 06  returns 0x01 (0000ms, 0593ms total)
T1040 014:212 JLINK_ReadMem (0xE000E010, 0x0010 Bytes, ...) -- CPU is running -- CPU_ReadMem(16 bytes @ 0xE000E010) - Data: 07 00 01 00 3F 0D 03 00 38 5D 01 00 C0 D4 01 00  returns 0x00 (0001ms, 0594ms total)
T1960 014:214 JLINK_IsHalted()  returns FALSE (0000ms, 0594ms total)
T1960 014:315 JLINK_IsHalted()  returns FALSE (0000ms, 0594ms total)
T1960 014:417 JLINK_IsHalted()  returns FALSE (0000ms, 0594ms total)
T1960 014:518 JLINK_IsHalted()  returns FALSE (0000ms, 0594ms total)
T1960 014:619 JLINK_IsHalted()  returns FALSE (0000ms, 0594ms total)
T1960 014:719 JLINK_IsHalted()  returns FALSE (0001ms, 0595ms total)
T1960 014:821 JLINK_ReadMemU32(0xE0001004, 0x0001 Items, ...) -- CPU is running - Data: 72 6B 0C 06  returns 0x01 (0000ms, 0594ms total)
T1040 014:821 JLINK_ReadMem (0xE000E010, 0x0010 Bytes, ...) -- CPU is running -- CPU_ReadMem(16 bytes @ 0xE000E010) - Data: 07 00 01 00 3F 0D 03 00 E2 69 02 00 C0 D4 01 00  returns 0x00 (0001ms, 0595ms total)
T1960 014:822 JLINK_IsHalted()  returns FALSE (0001ms, 0596ms total)
T1960 014:923 JLINK_IsHalted()  returns FALSE (0000ms, 0595ms total)
T1960 015:025 JLINK_IsHalted()  returns FALSE (0000ms, 0595ms total)
T1960 015:126 JLINK_IsHalted()  returns FALSE (0001ms, 0596ms total)
T1960 015:227 JLINK_IsHalted()  returns FALSE (0001ms, 0596ms total)
T1960 015:329 JLINK_ReadMemU32(0xE0001004, 0x0001 Items, ...) -- CPU is running - Data: 72 6B 0C 06  returns 0x01 (0000ms, 0595ms total)
T1040 015:329 JLINK_ReadMem (0xE000E010, 0x0010 Bytes, ...) -- CPU is running -- CPU_ReadMem(16 bytes @ 0xE000E010) - Data: 07 00 01 00 3F 0D 03 00 B2 8D 00 00 C0 D4 01 00  returns 0x00 (0001ms, 0596ms total)
T1960 015:330 JLINK_IsHalted()  returns FALSE (0001ms, 0597ms total)
T1960 015:431 JLINK_IsHalted()  returns FALSE (0000ms, 0596ms total)
T1960 015:532 JLINK_IsHalted()  returns FALSE (0000ms, 0596ms total)
T1960 015:634 JLINK_IsHalted()  returns FALSE (0000ms, 0596ms total)
T1960 015:735 JLINK_IsHalted()  returns FALSE (0000ms, 0596ms total)
T1960 015:836 JLINK_IsHalted()  returns FALSE (0000ms, 0596ms total)
T1960 015:937 JLINK_ReadMemU32(0xE0001004, 0x0001 Items, ...) -- CPU is running - Data: 72 6B 0C 06  returns 0x01 (0000ms, 0596ms total)
T1040 015:937 JLINK_ReadMem (0xE000E010, 0x0010 Bytes, ...) -- CPU is running -- CPU_ReadMem(16 bytes @ 0xE000E010) - Data: 07 00 01 00 3F 0D 03 00 F6 9C 00 00 C0 D4 01 00  returns 0x00 (0001ms, 0597ms total)
T1960 015:938 JLINK_IsHalted()  returns FALSE (0001ms, 0598ms total)
T1960 016:039 JLINK_IsHalted()  returns FALSE (0000ms, 0597ms total)
T1960 016:140 JLINK_IsHalted()  returns FALSE (0000ms, 0597ms total)
T1960 016:242 JLINK_IsHalted()  returns FALSE (0000ms, 0597ms total)
T1960 016:343 JLINK_IsHalted()  returns FALSE (0000ms, 0597ms total)
T1960 016:445 JLINK_IsHalted()  returns FALSE (0000ms, 0597ms total)
T1960 016:546 JLINK_ReadMemU32(0xE0001004, 0x0001 Items, ...) -- CPU is running - Data: 72 6B 0C 06  returns 0x01 (0000ms, 0597ms total)
T1040 016:547 JLINK_ReadMem (0xE000E010, 0x0010 Bytes, ...) -- CPU is running -- CPU_ReadMem(16 bytes @ 0xE000E010) - Data: 07 00 01 00 3F 0D 03 00 DF 39 01 00 C0 D4 01 00  returns 0x00 (0001ms, 0598ms total)
T1960 016:548 JLINK_IsHalted()  returns FALSE (0001ms, 0599ms total)
T1960 016:651 JLINK_IsHalted()  returns FALSE (0000ms, 0598ms total)
T1960 016:752 JLINK_IsHalted()  returns FALSE (0000ms, 0598ms total)
T1960 016:854 JLINK_IsHalted()  returns FALSE (0000ms, 0598ms total)
T1960 016:955 JLINK_IsHalted()  returns FALSE (0000ms, 0598ms total)
T1960 017:056 JLINK_ReadMemU32(0xE0001004, 0x0001 Items, ...) -- CPU is running - Data: 72 6B 0C 06  returns 0x01 (0000ms, 0598ms total)
T1040 017:056 JLINK_ReadMem (0xE000E010, 0x0010 Bytes, ...) -- CPU is running -- CPU_ReadMem(16 bytes @ 0xE000E010) - Data: 07 00 01 00 3F 0D 03 00 50 00 02 00 C0 D4 01 00  returns 0x00 (0001ms, 0599ms total)
T1960 017:057 JLINK_IsHalted()  returns FALSE (0001ms, 0600ms total)
T1960 017:158 JLINK_IsHalted()  returns FALSE (0000ms, 0599ms total)
T1960 017:260 JLINK_IsHalted()  returns FALSE (0000ms, 0599ms total)
T1960 017:360 JLINK_IsHalted()  returns FALSE (0000ms, 0599ms total)
T1960 017:461 JLINK_IsHalted()  returns FALSE (0000ms, 0599ms total)
T1960 017:563 JLINK_IsHalted()  returns FALSE (0000ms, 0599ms total)
T1960 017:664 JLINK_ReadMemU32(0xE0001004, 0x0001 Items, ...) -- CPU is running - Data: 72 6B 0C 06  returns 0x01 (0000ms, 0599ms total)
T1040 017:664 JLINK_ReadMem (0xE000E010, 0x0010 Bytes, ...) -- CPU is running -- CPU_ReadMem(16 bytes @ 0xE000E010) - Data: 07 00 01 00 3F 0D 03 00 F9 EE 00 00 C0 D4 01 00  returns 0x00 (0001ms, 0600ms total)
T1960 017:665 JLINK_IsHalted()  returns FALSE (0001ms, 0601ms total)
T1960 017:767 JLINK_IsHalted()  returns FALSE (0000ms, 0600ms total)
T1960 017:868 JLINK_IsHalted()  returns FALSE (0000ms, 0600ms total)
T1960 017:969 JLINK_IsHalted()  returns FALSE (0000ms, 0600ms total)
T1960 018:069 JLINK_IsHalted()  returns FALSE (0001ms, 0601ms total)
T1960 018:171 JLINK_ReadMemU32(0xE0001004, 0x0001 Items, ...) -- CPU is running - Data: 72 6B 0C 06  returns 0x01 (0000ms, 0600ms total)
T1040 018:171 JLINK_ReadMem (0xE000E010, 0x0010 Bytes, ...) -- CPU is running -- CPU_ReadMem(16 bytes @ 0xE000E010) - Data: 07 00 01 00 3F 0D 03 00 27 DC 01 00 C0 D4 01 00  returns 0x00 (0001ms, 0601ms total)
T1960 018:172 JLINK_IsHalted()  returns FALSE (0001ms, 0602ms total)
T1960 018:273 JLINK_IsHalted()  returns FALSE (0000ms, 0601ms total)
T1960 018:374 JLINK_IsHalted()  returns FALSE (0000ms, 0601ms total)
T1960 018:475 JLINK_IsHalted()  returns FALSE (0001ms, 0602ms total)
T1960 018:576 JLINK_IsHalted()  returns FALSE (0000ms, 0601ms total)
T1960 018:678 JLINK_IsHalted()  returns FALSE (0001ms, 0602ms total)
T1960 018:779 JLINK_ReadMemU32(0xE0001004, 0x0001 Items, ...) -- CPU is running - Data: 72 6B 0C 06  returns 0x01 (0000ms, 0601ms total)
T1040 018:780 JLINK_ReadMem (0xE000E010, 0x0010 Bytes, ...) -- CPU is running -- CPU_ReadMem(16 bytes @ 0xE000E010) - Data: 07 00 01 00 3F 0D 03 00 81 00 01 00 C0 D4 01 00  returns 0x00 (0001ms, 0602ms total)
T1960 018:781 JLINK_IsHalted()  returns FALSE (0001ms, 0603ms total)
T1960 018:883 JLINK_IsHalted()  returns FALSE (0001ms, 0603ms total)
T1960 018:985 JLINK_IsHalted()  returns FALSE (0000ms, 0602ms total)
T1960 019:086 JLINK_IsHalted()  returns FALSE (0000ms, 0602ms total)
T1960 019:187 JLINK_Halt()  returns 0x00 (0003ms, 0605ms total)
T1960 019:190 JLINK_IsHalted()  returns TRUE (0000ms, 0605ms total)
T1960 019:190 JLINK_IsHalted()  returns TRUE (0000ms, 0605ms total)
T1960 019:190 JLINK_IsHalted()  returns TRUE (0000ms, 0605ms total)
T1960 019:190 JLINK_ReadReg(R15 (PC))  returns 0x1A000B12 (0000ms, 0605ms total)
T1960 019:190 JLINK_ReadReg(XPSR)  returns 0x61000000 (0000ms, 0605ms total)
T1960 019:190 JLINK_ClrBPEx(BPHandle = 0x00000004)  returns 0x00 (0000ms, 0605ms total)
T1960 019:190 JLINK_ReadMemU32(0xE000ED30, 0x0001 Items, ...) -- CPU_ReadMem(4 bytes @ 0xE000ED30) - Data: 01 00 00 00  returns 0x01 (0001ms, 0606ms total)
T1960 019:191 JLINK_ReadMemU32(0xE0001028, 0x0001 Items, ...) -- CPU_ReadMem(4 bytes @ 0xE0001028) - Data: 00 00 00 00  returns 0x01 (0001ms, 0607ms total)
T1960 019:192 JLINK_ReadMemU32(0xE0001038, 0x0001 Items, ...) -- CPU_ReadMem(4 bytes @ 0xE0001038) - Data: 00 02 00 00  returns 0x01 (0001ms, 0608ms total)
T1960 019:193 JLINK_ReadMemU32(0xE0001048, 0x0001 Items, ...) -- CPU_ReadMem(4 bytes @ 0xE0001048) - Data: 00 00 00 00  returns 0x01 (0000ms, 0608ms total)
T1960 019:193 JLINK_ReadMemU32(0xE0001058, 0x0001 Items, ...) -- CPU_ReadMem(4 bytes @ 0xE0001058) - Data: 00 00 00 00  returns 0x01 (0001ms, 0609ms total)
T1960 019:194 JLINK_ReadReg(R0)  returns 0x00000000 (0000ms, 0609ms total)
T1960 019:194 JLINK_ReadReg(R1)  returns 0xE000ED04 (0000ms, 0609ms total)
T1960 019:194 JLINK_ReadReg(R2)  returns 0x00000000 (0000ms, 0609ms total)
T1960 019:194 JLINK_ReadReg(R3)  returns 0x00000000 (0000ms, 0609ms total)
T1960 019:194 JLINK_ReadReg(R4)  returns 0x00000000 (0000ms, 0609ms total)
T1960 019:194 JLINK_ReadReg(R5)  returns 0x00000000 (0000ms, 0609ms total)
T1960 019:194 JLINK_ReadReg(R6)  returns 0x00000000 (0000ms, 0609ms total)
T1960 019:194 JLINK_ReadReg(R7)  returns 0x00000000 (0000ms, 0609ms total)
T1960 019:194 JLINK_ReadReg(R8)  returns 0x00000000 (0000ms, 0609ms total)
T1960 019:194 JLINK_ReadReg(R9)  returns 0x00000000 (0000ms, 0609ms total)
T1960 019:194 JLINK_ReadReg(R10)  returns 0x00000000 (0000ms, 0609ms total)
T1960 019:194 JLINK_ReadReg(R11)  returns 0x00000000 (0000ms, 0609ms total)
T1960 019:194 JLINK_ReadReg(R12)  returns 0x00000000 (0000ms, 0609ms total)
T1960 019:194 JLINK_ReadReg(R13 (SP))  returns 0x20000B60 (0000ms, 0609ms total)
T1960 019:194 JLINK_ReadReg(R14)  returns 0x1A000C47 (0000ms, 0609ms total)
T1960 019:194 JLINK_ReadReg(R15 (PC))  returns 0x1A000B12 (0000ms, 0609ms total)
T1960 019:194 JLINK_ReadReg(XPSR)  returns 0x61000000 (0000ms, 0609ms total)
T1960 019:194 JLINK_ReadReg(MSP)  returns 0x10000610 (0000ms, 0609ms total)
T1960 019:194 JLINK_ReadReg(PSP)  returns 0x20000B60 (0000ms, 0609ms total)
T1960 019:194 JLINK_ReadReg(CFBP)  returns 0x02000000 (0000ms, 0609ms total)
T1960 019:194 JLINK_ReadReg(FPSCR)  returns 0x00000000 (0004ms, 0613ms total)
T1960 019:198 JLINK_ReadReg(FPS0)  returns 0x00000000 (0000ms, 0613ms total)
T1960 019:198 JLINK_ReadReg(FPS1)  returns 0x00000000 (0000ms, 0613ms total)
T1960 019:198 JLINK_ReadReg(FPS2)  returns 0x00000000 (0000ms, 0613ms total)
T1960 019:198 JLINK_ReadReg(FPS3)  returns 0x00000000 (0000ms, 0613ms total)
T1960 019:198 JLINK_ReadReg(FPS4)  returns 0x00000000 (0000ms, 0613ms total)
T1960 019:198 JLINK_ReadReg(FPS5)  returns 0x00000000 (0000ms, 0613ms total)
T1960 019:198 JLINK_ReadReg(FPS6)  returns 0x00000000 (0000ms, 0613ms total)
T1960 019:198 JLINK_ReadReg(FPS7)  returns 0x00000000 (0000ms, 0613ms total)
T1960 019:198 JLINK_ReadReg(FPS8)  returns 0x00000000 (0000ms, 0613ms total)
T1960 019:198 JLINK_ReadReg(FPS9)  returns 0x00000000 (0000ms, 0613ms total)
T1960 019:198 JLINK_ReadReg(FPS10)  returns 0x00000000 (0000ms, 0613ms total)
T1960 019:198 JLINK_ReadReg(FPS11)  returns 0x00000000 (0000ms, 0613ms total)
T1960 019:198 JLINK_ReadReg(FPS12)  returns 0x00000000 (0000ms, 0613ms total)
T1960 019:198 JLINK_ReadReg(FPS13)  returns 0x00000000 (0000ms, 0613ms total)
T1960 019:198 JLINK_ReadReg(FPS14)  returns 0x00000000 (0000ms, 0613ms total)
T1960 019:198 JLINK_ReadReg(FPS15)  returns 0x00000000 (0000ms, 0613ms total)
T1960 019:198 JLINK_ReadReg(FPS16)  returns 0x00000000 (0000ms, 0613ms total)
T1960 019:198 JLINK_ReadReg(FPS17)  returns 0x00000000 (0000ms, 0613ms total)
T1960 019:198 JLINK_ReadReg(FPS18)  returns 0x00000000 (0000ms, 0613ms total)
T1960 019:199 JLINK_ReadReg(FPS19)  returns 0x00000000 (0000ms, 0614ms total)
T1960 019:199 JLINK_ReadReg(FPS20)  returns 0x00000000 (0000ms, 0614ms total)
T1960 019:199 JLINK_ReadReg(FPS21)  returns 0x00000000 (0000ms, 0614ms total)
T1960 019:199 JLINK_ReadReg(FPS22)  returns 0x00000000 (0000ms, 0614ms total)
T1960 019:199 JLINK_ReadReg(FPS23)  returns 0x00000000 (0000ms, 0614ms total)
T1960 019:199 JLINK_ReadReg(FPS24)  returns 0x00000000 (0000ms, 0614ms total)
T1960 019:199 JLINK_ReadReg(FPS25)  returns 0x00000000 (0000ms, 0614ms total)
T1960 019:199 JLINK_ReadReg(FPS26)  returns 0x00000000 (0000ms, 0614ms total)
T1960 019:199 JLINK_ReadReg(FPS27)  returns 0x00000000 (0000ms, 0614ms total)
T1960 019:199 JLINK_ReadReg(FPS28)  returns 0x00000000 (0000ms, 0614ms total)
T1960 019:199 JLINK_ReadReg(FPS29)  returns 0x00000000 (0000ms, 0614ms total)
T1960 019:199 JLINK_ReadReg(FPS30)  returns 0x00000000 (0000ms, 0614ms total)
T1960 019:199 JLINK_ReadReg(FPS31)  returns 0x00000000 (0000ms, 0614ms total)
T1040 019:200 JLINK_ReadMem (0x20000B64, 0x0004 Bytes, ...) -- CPU_ReadMem(4 bytes @ 0x20000B64) - Data: 47 0C 00 1A  returns 0x00 (0001ms, 0615ms total)
T1040 019:201 JLINK_ReadMem (0x20000B60, 0x0004 Bytes, ...) -- CPU_ReadMem(4 bytes @ 0x20000B60) - Data: 00 00 00 00  returns 0x00 (0000ms, 0615ms total)
T1040 019:208 JLINK_ReadMem (0xE000E010, 0x0010 Bytes, ...) -- CPU_ReadMem(16 bytes @ 0xE000E010) - Data: 07 00 01 00 3F 0D 03 00 10 42 02 00 C0 D4 01 00  returns 0x00 (0001ms, 0616ms total)
T1040 019:212 JLINK_ReadMem (0x1A000B12, 0x0002 Bytes, ...) -- CPU_ReadMem(64 bytes @ 0x1A000B00) -- Updating C cache (64 bytes @ 0x1A000B00) -- Read from C cache (2 bytes @ 0x1A000B12) - Data: 00 28  returns 0x00 (0001ms, 0617ms total)
T1040 019:213 JLINK_ReadMem (0x1A000B14, 0x003C Bytes, ...) -- CPU_ReadMem(64 bytes @ 0x1A000B40) -- Updating C cache (64 bytes @ 0x1A000B40) -- Read from C cache (60 bytes @ 0x1A000B14) - Data: E4 D1 10 BD DC 01 00 10 38 00 00 10 34 00 00 10 ...  returns 0x00 (0001ms, 0618ms total)
T1040 021:634 JLINK_SetResetType(JLINKARM_RESET_TYPE_NORMAL)  returns JLINKARM_RESET_TYPE_NORMAL (0000ms, 0618ms total)
T1040 021:634 JLINK_Reset()LPC18xx/43xx reset: Halting CPU before performing reset...LPC18xx/43xx reset: Halted CPU before reset. -- CPU_ReadMem(64 bytes @ 0x10000000) -- CPU_ReadMem(64 bytes @ 0x10080000) -- CPU_ReadMem(4096 bytes @ 0x10089000) -- CPU_WriteMem(4 bytes @ 0x40043100) -- CPU_WriteMem(4 bytes @ 0x4004312C) -- CPU_ReadMem(4 bytes @ 0xE000EDFC) -- CPU_ReadMem(4 bytes @ 0xE0001020) -- CPU_ReadMem(4 bytes @ 0xE0001024) -- CPU_ReadMem(4 bytes @ 0xE0001028) -- CPU_WriteMem(4 bytes @ 0xE0001020)
 -- CPU_WriteMem(4 bytes @ 0xE0001024) -- CPU_WriteMem(4 bytes @ 0xE0001028) -- CPU_ReadMem(8192 bytes @ 0x10400000)Unknown LPC18xx/43xx bootloader variant. Halting after reset may fail. -- CPU_ReadMem(4 bytes @ 0xE000EDFC) -- CPU_WriteMem(4 bytes @ 0xE000ED0C) -- CPU_WriteMem(4 bytes @ 0xE0001020) -- CPU_WriteMem(4 bytes @ 0xE0001024) -- CPU_WriteMem(4 bytes @ 0xE0001028) -- CPU_WriteMem(64 bytes @ 0x10000000) -- CPU_WriteMem(64 bytes @ 0x10080000) -- CPU_WriteMem(4096 bytes @ 0x10089000)
 -- CPU_ReadMem(4 bytes @ 0x00000000) -- CPU_WriteMem(4 bytes @ 0xE000EDF8) -- CPU_WriteMem(4 bytes @ 0xE000EDF4) -- CPU_ReadMem(4 bytes @ 0x00000004) -- CPU_WriteMem(4 bytes @ 0xE000EDF8) -- CPU_WriteMem(4 bytes @ 0xE000EDF4) -- CPU_WriteMem(4 bytes @ 0xE0002000) -- CPU_ReadMem(4 bytes @ 0xE000EDFC) -- CPU_ReadMem(4 bytes @ 0xE0001000) (0168ms, 0786ms total)
T1040 021:803 JLINK_ReadReg(R15 (PC))  returns 0x1A0001EC (0000ms, 0786ms total)
T1040 021:803 JLINK_ReadReg(XPSR)  returns 0x41000000 (0000ms, 0786ms total)
T1040 021:807 JLINK_ReadMem (0x1A0001EC, 0x003C Bytes, ...) -- CPU_ReadMem(128 bytes @ 0x1A0001C0) -- Updating C cache (128 bytes @ 0x1A0001C0) -- Read from C cache (60 bytes @ 0x1A0001EC) - Data: 08 48 80 47 08 48 00 47 FE E7 FE E7 FE E7 FE E7 ...  returns 0x00 (0002ms, 0788ms total)
T1040 021:923 JLINK_ReadMem (0xE000E010, 0x0010 Bytes, ...) -- CPU_ReadMem(16 bytes @ 0xE000E010) - Data: 00 00 00 00 80 8D 5B 00 00 00 00 00 C0 D4 01 00  returns 0x00 (0001ms, 0789ms total)
T1960 023:452 JLINK_Step() -- Read from C cache (2 bytes @ 0x1A0001EC) -- CPU_ReadMem(4 bytes @ 0xE000ED18) -- CPU_WriteMem(4 bytes @ 0xE000ED18) -- CPU_ReadMem(4 bytes @ 0xE000ED18) -- CPU_WriteMem(4 bytes @ 0xE000ED18) -- Read from C cache (4 bytes @ 0x1A000210) -- Simulated  returns 0x00 (0002ms, 0791ms total)
T1960 023:454 JLINK_ReadReg(R15 (PC))  returns 0x1A0001EE (0000ms, 0791ms total)
T1960 023:454 JLINK_ReadReg(XPSR)  returns 0x41000000 (0000ms, 0791ms total)
T1960 023:454 JLINK_ReadReg(R0)  returns 0x1A0007A1 (0000ms, 0791ms total)
T1960 023:454 JLINK_ReadReg(R1)  returns 0x1A000000 (0000ms, 0791ms total)
T1960 023:454 JLINK_ReadReg(R2)  returns 0x400F1FC0 (0000ms, 0791ms total)
T1960 023:454 JLINK_ReadReg(R3)  returns 0x12345678 (0000ms, 0791ms total)
T1960 023:454 JLINK_ReadReg(R4)  returns 0x40045000 (0000ms, 0791ms total)
T1960 023:454 JLINK_ReadReg(R5)  returns 0x1008000C (0000ms, 0791ms total)
T1960 023:454 JLINK_ReadReg(R6)  returns 0x00000000 (0000ms, 0791ms total)
T1960 023:454 JLINK_ReadReg(R7)  returns 0x00000000 (0000ms, 0791ms total)
T1960 023:454 JLINK_ReadReg(R8)  returns 0x00000000 (0000ms, 0791ms total)
T1960 023:454 JLINK_ReadReg(R9)  returns 0x00000000 (0000ms, 0791ms total)
T1960 023:454 JLINK_ReadReg(R10)  returns 0x00000000 (0000ms, 0791ms total)
T1960 023:455 JLINK_ReadReg(R11)  returns 0x00000000 (0000ms, 0792ms total)
T1960 023:455 JLINK_ReadReg(R12)  returns 0x00000000 (0000ms, 0792ms total)
T1960 023:455 JLINK_ReadReg(R13 (SP))  returns 0x10000630 (0000ms, 0792ms total)
T1960 023:455 JLINK_ReadReg(R14)  returns 0x10405B25 (0000ms, 0792ms total)
T1960 023:455 JLINK_ReadReg(R15 (PC))  returns 0x1A0001EE (0000ms, 0792ms total)
T1960 023:455 JLINK_ReadReg(XPSR)  returns 0x41000000 (0000ms, 0792ms total)
T1960 023:455 JLINK_ReadReg(MSP)  returns 0x10000630 (0000ms, 0792ms total)
T1960 023:455 JLINK_ReadReg(PSP)  returns 0x00000000 (0000ms, 0792ms total)
T1960 023:455 JLINK_ReadReg(CFBP)  returns 0x00000000 (0000ms, 0792ms total)
T1960 023:455 JLINK_ReadReg(FPSCR)  returns 0x00000000 (0004ms, 0796ms total)
T1960 023:459 JLINK_ReadReg(FPS0)  returns 0x00000000 (0000ms, 0796ms total)
T1960 023:459 JLINK_ReadReg(FPS1)  returns 0x00000000 (0000ms, 0796ms total)
T1960 023:459 JLINK_ReadReg(FPS2)  returns 0x00000000 (0000ms, 0796ms total)
T1960 023:459 JLINK_ReadReg(FPS3)  returns 0x00000000 (0000ms, 0796ms total)
T1960 023:459 JLINK_ReadReg(FPS4)  returns 0x00000000 (0000ms, 0796ms total)
T1960 023:459 JLINK_ReadReg(FPS5)  returns 0x00000000 (0000ms, 0796ms total)
T1960 023:459 JLINK_ReadReg(FPS6)  returns 0x00000000 (0000ms, 0796ms total)
T1960 023:459 JLINK_ReadReg(FPS7)  returns 0x00000000 (0000ms, 0796ms total)
T1960 023:459 JLINK_ReadReg(FPS8)  returns 0x00000000 (0000ms, 0796ms total)
T1960 023:459 JLINK_ReadReg(FPS9)  returns 0x00000000 (0000ms, 0796ms total)
T1960 023:460 JLINK_ReadReg(FPS10)  returns 0x00000000 (0000ms, 0797ms total)
